
**** 12/07/23 23:09:22 ********* PSpice 9.2 (Mar 2000) ******** ID# 0 ********

 * C:\Users\sdorunts\Desktop\BMSTU Altium\Low-Freq-Amp\Simulation\Scheme_Sim.sch


 ****     CIRCUIT DESCRIPTION


******************************************************************************




* Schematics Version 9.2
* Thu Dec 07 23:09:19 2023


.PARAM         Rn=3 Vhigh=50mV Vlow=-50mV

** Analysis setup **
.tran 0ns 200us 0 200ns
.OP 


* From [PSPICE NETLIST] section of C:\Program Files\Orcad\PSpice\PSpice.ini:
.lib "nom.lib"

.INC "Scheme_Sim.net"



**** INCLUDING Scheme_Sim.net ****
* Schematics Netlist *



C_C17         $N_0001 $N_0002  10u  
Q_Q10         $N_0003 $N_0002 $N_0004 BC556B 
Q_Q14         $N_0005 $N_0003 $N_0006 BD241C
Q_Q13         $N_0008 $N_0007 $N_0004 BC556B 
C_C18         0 $N_0009  470u  
V_V7         $N_0010 0 12V
C_C24         $N_0005 $N_0011  470n  
R_R27         $N_0004 $N_0010  2.7k  
C_C23         $N_0012 $N_0013  220u  
C_C20         $N_0003 $N_0005  100p  
X_Q12         $N_0008 $N_0005 $N_0014 TIP147
C_C21         0 $N_0015  1u  
C_C22         0 $N_0015  220u  
R_R26         $N_0010 $N_0015  2.2k  
X_Q11         $N_0015 $N_0011 $N_0016 TIP142
R_R22         $N_0013 $N_0015  1k  
R_R20         $N_0013 $N_0011  1k  
R_R29         0 $N_0002  22k  
D_D57         $N_0017 $N_0018 D1N4007 
D_D56         $N_0019 $N_0017 D1N4007 
D_D55         $N_0011 $N_0019 D1N4007 
R_R25         $N_0009 $N_0007  100  
R_R28         $N_0007 $N_0012  8.2k  
R_R23         $N_0012 $N_0016  0.44  
R_R24         $N_0014 $N_0012  0.33  
C_C28         $N_0008 $N_0006  10u  
D_D58         $N_0018 $N_0005 D1N4007 
R_R41         $N_0020 0  1k  
C_C16         0 $N_0010  220n  
R_R30         $N_0008 $N_0003  733  
V_V8         $N_0015 0 20V
V_V9         0 $N_0008 20V
R_R31         $N_0008 $N_0006  33  
V_V16         $N_0020 0 DC 0 AC 0
+PULSE -50mV 50mV 0 0 0 50us 100us
C_C30         $N_0007 $N_0005  220p  
R_R21         $N_0021 $N_0012  1  
C_C25         0 $N_0021  100n  
C_C27         $N_0008 0  220u  
C_C26         $N_0008 0  1u  
L_L1         $N_0012 $N_0022  12.5m  
C_C32         $N_0022 $N_0012  800u  
R_R43         $N_0022 $N_0012  18  
L_L2         $N_0022 $N_0023  0.3m  
R_R44         0 $N_0023  3  
V_V17         $N_0001 0 DC 0 AC 50mV
+SIN 0 50mV 50k 0 0 0

**** RESUMING Scheme_Sim.cir ****
.PROBE V(*) I(*) W(*) D(*) NOISE(*) 


.END

**** 12/07/23 23:09:22 ********* PSpice 9.2 (Mar 2000) ******** ID# 0 ********

 * C:\Users\sdorunts\Desktop\BMSTU Altium\Low-Freq-Amp\Simulation\Scheme_Sim.sch


 ****     Diode MODEL PARAMETERS


******************************************************************************




               D1N4007         D1N4001         X_Q12.Dmodel    X_Q11.Dmodel    
          IS   14.110000E-09   14.110000E-09    4.388700E-12    4.388700E-12 
           N    1.984           1.984           3.4748          3.4748       
         ISR                                  100.000000E-12  100.000000E-12 
         IKF   94.81           94.81                                         
          BV    1.500000E+03   75             120             120            
         IBV   10.000000E-06   10.000000E-06    1.000000E-06    1.000000E-06 
          RS     .03389          .03389         1.000000E-03    1.000000E-03 
          TT    5.700000E-06    5.700000E-06    5.000000E-09    5.000000E-09 
         CJO   25.890000E-12   25.890000E-12    1.000000E-12    1.000000E-12 
          VJ     .3245           .3245           .75             .75         
           M     .44             .44             .3333           .3333       


**** 12/07/23 23:09:22 ********* PSpice 9.2 (Mar 2000) ******** ID# 0 ********

 * C:\Users\sdorunts\Desktop\BMSTU Altium\Low-Freq-Amp\Simulation\Scheme_Sim.sch


 ****     BJT MODEL PARAMETERS


******************************************************************************




               BC556B          BD241C          X_Q12.Q1model   X_Q12.Q2model   
               PNP             NPN             PNP             PNP             
          IS    1.020000E-15    2.447000E-12  350.700000E-15  350.700000E-15 
          BF  306.5           208.2             2.997000E+03    2.997000E+03 
          NF    1               1               1               1            
         VAF   52.31          100             100             100            
         IKF     .09185          .9743           .7028           .7028       
         ISE   10.270000E-15   70.690000E-12   20.450000E-12   20.450000E-12 
          NE    1.764           1.565           1.522           1.522        
          BR    7.437          12.59             .1001           .1001       
          NR    1               1               1               1            
         VAR                                  100             100            
         IKR    1.7             3.86            4.029           4.029        
         ISC    1.020000E-15   11.680000E-09   21.470000E-09   21.470000E-09 
          NC    1.63            1.835           1.562           1.562        
          NK     .5351           .6134           .7315           .7315       
          RB                     .1             5.07314         5.07314      
          RC    1.162            .4685          1.010530E-03    1.010530E-03 
         CJE   30.000000E-12  188.500000E-12    2.000000E-12    2.000000E-12 
         VJE     .5                                                          
         MJE     .3333           .4878                                       
         CJC    9.810000E-12  142.000000E-12    2.000000E-12                 
         VJC     .4865                                                       
         MJC     .332            .4353                                       
        XCJC                                     .9              .9          
          TF  611.600000E-12   19.850000E-09   15.000000E-09   15.000000E-09 
         XTF   25.92            5.945           1               1            
         VTF   10              10              10              10            
         ITF    1.37          164.1              .01             .01         
          TR   10.000000E-09  194.200000E-09   80.000000E-06   80.000000E-06 
         XTB    1.5             1.5                                          
          CN    2.2             2.42            2.2             2.2          
           D     .52             .87             .52             .52         


               X_Q11.Q1model   X_Q11.Q2model   
               NPN             NPN             
          IS    1.605000E-12    1.605000E-12 
          BF  745.1           745.1          
          NF    1               1            
         VAF  100             100            
         IKF     .3592           .3592       
         ISE    3.554000E-09    3.554000E-09 
          NE    1.998           1.998        
          BR     .1018           .1018       
          NR    1               1            
         VAR  100             100            
         IKR    2.814           2.814        
         ISC    3.257000E-12    3.257000E-12 
          NC    2.37            2.37         
          NK     .4489           .4489       
          RB     .159612         .159612     
          RC     .106336         .106336     
         CJE    2.000000E-12    2.000000E-12 
         CJC    2.000000E-12                 
        XCJC     .9              .9          
          TF   23.000000E-09   23.000000E-09 
         XTF    1               1            
         VTF   10              10            
         ITF     .01             .01         
          TR    1.500000E-06    1.500000E-06 
          CN    2.42            2.42         
           D     .87             .87         


**** 12/07/23 23:09:22 ********* PSpice 9.2 (Mar 2000) ******** ID# 0 ********

 * C:\Users\sdorunts\Desktop\BMSTU Altium\Low-Freq-Amp\Simulation\Scheme_Sim.sch


 ****     SMALL SIGNAL BIAS SOLUTION       TEMPERATURE =   27.000 DEG C


******************************************************************************



 NODE   VOLTAGE     NODE   VOLTAGE     NODE   VOLTAGE     NODE   VOLTAGE


($N_0001)    0.0000                   ($N_0002)     .0710                       

($N_0003)  -19.1280                   ($N_0004)     .7844                       

($N_0005)   -1.3729                   ($N_0006)  -19.6940                       

($N_0007)     .0511                   ($N_0008)  -20.0000                       

($N_0009)     .0511                   ($N_0010)   12.0000                       

($N_0011)    1.3686                   ($N_0012)    -.0058                       

($N_0013)   10.6840                   ($N_0014)    -.0796                       

($N_0015)   20.0000                   ($N_0016)     .0917                       

($N_0017)    -.0021                   ($N_0018)    -.6875                       

($N_0019)     .6832                   ($N_0020)    0.0000                       

($N_0021)    -.0058                   ($N_0022)    -.0058                       

($N_0023)    -.0058                   (X_Q11.4)     .7732                       

(X_Q12.4)    -.7374                   




    VOLTAGE SOURCE CURRENTS
    NAME         CURRENT

    V_V7        -5.176E-04
    V_V8        -2.341E-01
    V_V9        -2.366E-01
    V_V16        0.000E+00
    V_V17        0.000E+00

    TOTAL POWER DISSIPATION   9.42E+00  WATTS


**** 12/07/23 23:09:22 ********* PSpice 9.2 (Mar 2000) ******** ID# 0 ********

 * C:\Users\sdorunts\Desktop\BMSTU Altium\Low-Freq-Amp\Simulation\Scheme_Sim.sch


 ****     OPERATING POINT INFORMATION      TEMPERATURE =   27.000 DEG C


******************************************************************************






**** DIODES


NAME         D_D57       D_D56       D_D55       D_D58     
MODEL        D1N4007     D1N4007     D1N4007     D1N4007   
ID           8.86E-03    8.86E-03    8.86E-03    8.86E-03 
VD           6.85E-01    6.85E-01    6.85E-01    6.85E-01 
REQ          5.79E+00    5.79E+00    5.79E+00    5.79E+00 
CAP          9.84E-07    9.84E-07    9.84E-07    9.84E-07 

NAME         X_Q12.D1                X_Q11.D1              
MODEL        X_Q12.Dmodel            X_Q11.Dmodel          
ID          -3.06E-10               -3.06E-10             
VD          -1.99E+01               -1.99E+01             
REQ          2.74E+11                2.74E+11             
CAP          3.31E-13                3.31E-13             


**** BIPOLAR JUNCTION TRANSISTORS


NAME         Q_Q10       Q_Q14       Q_Q13       X_Q12.Q1              
MODEL        BC556B      BD241C      BC556B      X_Q12.Q1model         
IB          -3.23E-06    1.22E-04   -6.94E-06   -2.09E-04             
IC          -1.31E-03    9.15E-03   -2.83E-03   -1.80E-02             
VBE         -7.13E-01    5.66E-01   -7.33E-01   -6.36E-01             
VBC          1.92E+01   -1.78E+01    2.01E+01    1.86E+01             
VCE         -1.99E+01    1.83E+01   -2.08E+01   -1.93E+01             
BETADC       4.06E+02    7.53E+01    4.08E+02    8.61E+01             
GM           5.01E-02    3.50E-01    1.07E-01    6.75E-01             
RPI          8.08E+03    2.83E+02    3.75E+03    1.86E+02             
RX           0.00E+00    1.00E-01    0.00E+00    5.07E+00             
RO           5.45E+04    1.29E+04    2.55E+04    6.55E+03             
CBE          9.18E-11    7.28E-09    1.28E-10    1.20E-08             
CBC          2.87E-12    3.52E-11    2.83E-12    6.16E-13             
CJS          0.00E+00    0.00E+00    0.00E+00    0.00E+00             
BETAAC       4.05E+02    9.93E+01    4.01E+02    1.25E+02             
CBX/CBX2     0.00E+00    0.00E+00    0.00E+00    6.84E-14             
FT/FT2       8.43E+07    7.62E+06    1.31E+08    8.95E+06             



NAME         X_Q12.Q2                X_Q11.Q1              
MODEL        X_Q12.Q2model           X_Q11.Q1model         
IB          -1.87E-03                3.80E-04             
IC          -2.05E-01                1.81E-02             
VBE         -6.58E-01                5.95E-01             
VBC          1.93E+01               -1.86E+01             
VCE         -1.99E+01                1.92E+01             
BETADC       1.10E+02                4.78E+01             
GM           7.40E+00                6.76E-01             
RPI          2.07E+01                1.29E+02             
RX           9.89E-01                1.60E-01             
RO           5.78E+02                6.51E+03             
CBE          1.37E-07                1.85E-08             
CBC          8.00E-17                6.15E-13             
CJS          0.00E+00                0.00E+00             
BETAAC       1.53E+02                8.71E+01             
CBX/CBX2     0.00E+00                6.84E-14             
FT/FT2       8.58E+06                5.83E+06             



NAME         X_Q11.Q2              
MODEL        X_Q11.Q2model         
IB           1.55E-03             
IC           2.03E-01             
VBE          6.81E-01             
VBC         -1.92E+01             
VCE          1.99E+01             
BETADC       1.31E+02             
GM           5.83E+00             
RPI          2.69E+01             
RX           2.54E-01             
RO           5.84E+02             
CBE          1.70E-07             
CBC          1.50E-18             
CJS          0.00E+00             
BETAAC       1.57E+02             
CBX/CBX2     0.00E+00             
FT/FT2       5.46E+06             


**** 12/07/23 23:09:22 ********* PSpice 9.2 (Mar 2000) ******** ID# 0 ********

 * C:\Users\sdorunts\Desktop\BMSTU Altium\Low-Freq-Amp\Simulation\Scheme_Sim.sch


 ****     INITIAL TRANSIENT SOLUTION       TEMPERATURE =   27.000 DEG C


******************************************************************************



 NODE   VOLTAGE     NODE   VOLTAGE     NODE   VOLTAGE     NODE   VOLTAGE


($N_0001)    0.0000                   ($N_0002)     .0710                       

($N_0003)  -19.1280                   ($N_0004)     .7844                       

($N_0005)   -1.3729                   ($N_0006)  -19.6940                       

($N_0007)     .0511                   ($N_0008)  -20.0000                       

($N_0009)     .0511                   ($N_0010)   12.0000                       

($N_0011)    1.3686                   ($N_0012)    -.0058                       

($N_0013)   10.6840                   ($N_0014)    -.0796                       

($N_0015)   20.0000                   ($N_0016)     .0917                       

($N_0017)    -.0021                   ($N_0018)    -.6875                       

($N_0019)     .6832                   ($N_0020)    -.0500                       

($N_0021)    -.0058                   ($N_0022)    -.0058                       

($N_0023)    -.0058                   (X_Q11.4)     .7732                       

(X_Q12.4)    -.7374                   




    VOLTAGE SOURCE CURRENTS
    NAME         CURRENT

    V_V7        -5.176E-04
    V_V8        -2.341E-01
    V_V9        -2.366E-01
    V_V16        5.000E-05
    V_V17        0.000E+00

    TOTAL POWER DISSIPATION   9.42E+00  WATTS



          JOB CONCLUDED

          TOTAL JOB TIME             .13
